T0BB0 398:259 SEGGER J-Link V4.86b Log File (0000ms, 10633ms total)
T0BB0 398:259 DLL Compiled: Jun 27 2014 20:11:00 (0000ms, 10633ms total)
T0BB0 398:259 Logging started @ 2019-03-19 17:06 (0000ms, 10633ms total)
T0BB0 398:259 JLINK_SetWarnOutHandler(...) (0001ms, 10634ms total)
T0BB0 398:260 JLINK_OpenEx(...)
Firmware: J-Link ARM-OB STM32 compiled Aug 22 2012 19:52:04
Hardware: V7.00
S/N: 20090928
Feature(s): RDI,FlashDL,FlashBP,JFlash,GDBFullDevice "STM32F427II" selected (2048 KB flash, 192 KB RAM).  returns O.K. (0266ms, 10900ms total)
T0BB0 398:526 JLINK_GetEmuCaps()  returns 0x88EA5833 (0000ms, 10900ms total)
T0BB0 398:526 JLINK_TIF_GetAvailable(...) (0000ms, 10900ms total)
T0BB0 398:526 JLINK_SetErrorOutHandler(...) (0001ms, 10901ms total)
T0BB0 398:527 JLINK_ExecCommand("ProjectFile = "E:\user\Desktop\2019Sentry\RM_sentry\MDK-ARM\JLinkSettings.ini"", ...)Device "STM32F427II" selected (2048 KB flash, 192 KB RAM).  returns 0x00 (0016ms, 10917ms total)
T0BB0 398:549 JLINK_ExecCommand("Device = STM32F427IIHx", ...)Device "STM32F427II" selected (2048 KB flash, 192 KB RAM).  returns 0x00 (0006ms, 10923ms total)
T0BB0 398:555 JLINK_ExecCommand("DisableConnectionTimeout", ...)  returns 0x01 (0000ms, 10923ms total)
T0BB0 398:555 JLINK_GetHardwareVersion()  returns 0x11170 (0000ms, 10923ms total)
T0BB0 398:555 JLINK_GetDLLVersion()  returns 48602 (0000ms, 10923ms total)
T0BB0 398:555 JLINK_GetFirmwareString(...) (0000ms, 10923ms total)
T0BB0 398:571 JLINK_GetDLLVersion()  returns 48602 (0000ms, 10923ms total)
T0BB0 398:571 JLINK_GetCompileDateTime() (0000ms, 10923ms total)
T0BB0 398:575 JLINK_GetFirmwareString(...) (0000ms, 10923ms total)
T0BB0 398:578 JLINK_GetHardwareVersion()  returns 0x11170 (0000ms, 10923ms total)
T0BB0 398:595 JLINK_TIF_Select(JLINKARM_TIF_SWD)  returns 0x00 (0001ms, 10924ms total)
T0BB0 398:596 JLINK_SetSpeed(5000) (0000ms, 10924ms total)
T0BB0 398:596 JLINK_GetId() >0x108 TIF>Found SWD-DP with ID 0x2BA01477 >0x0D TIF> >0x28 TIF> >0x0D TIF> >0x28 TIF> >0x0D TIF> >0x21 TIF> >0x0D TIF> >0x28 TIF> >0x0D TIF> >0x28 TIF> >0x0D TIF> >0x28 TIF> >0x0D TIF> >0x21 TIF> >0x0D TIF> >0x21 TIF> >0x0D TIF> >0x28 TIF> >0x0D TIF> >0x21 TIF> >0x0D TIF> >0x21 TIF> >0x0D TIF> >0x28 TIF> >0x0D TIF> >0x28 TIF> >0x0D TIF> >0x28 TIF> >0x0D TIF> >0x21 TIF> >0x0D TIF> >0x21 TIF> >0x0D TIF> >0x28 TIF> >0x0D TIF> >0x28 TIF> >0x108 TIF>Found SWD-DP with ID 0x2BA01477
 >0x0D TIF> >0x21 TIF> >0x0D TIF> >0x28 TIF> >0x0D TIF> >0x28 TIF> >0x0D TIF> >0x21 TIF> >0x0D TIF> >0x28 TIF> >0x0D TIF> >0x21 TIF> >0x0D TIF> >0x21 TIF> >0x0D TIF> >0x21 TIF> >0x0D TIF> >0x21 TIF> >0x0D TIF> >0x28 TIF> >0x0D TIF> >0x28 TIF> >0x0D TIF> >0x21 TIF> >0x0D TIF> >0x28 TIF> >0x0D TIF> >0x28 TIF> >0x0D TIF> >0x28 TIF> >0x0D TIF> >0x21 TIF> >0x0D TIF> >0x21 TIF> >0x0D TIF> >0x28 TIF> >0x0D TIF> >0x21 TIF> >0x0D TIF> >0x21 TIF>Found Cortex-M4 r0p1, Little endian.
 -- CPU_WriteMem(4 bytes @ 0xE0002000) -- CPU_ReadMem(4 bytes @ 0xE000EDF0) -- CPU_WriteMem(4 bytes @ 0xE000EDF0) -- CPU_ReadMem(4 bytes @ 0xE0002000)FPUnit: 6 code (BP) slots and 2 literal slots -- CPU_ReadMem(4 bytes @ 0xE000EDFC) -- CPU_WriteMem(4 bytes @ 0xE000EDFC) -- CPU_ReadMem(4 bytes @ 0xE0001000) -- CPU_WriteMem(4 bytes @ 0xE0001000) -- CPU_ReadMem(4 bytes @ 0xE00FF010)TPIU fitted. -- CPU_ReadMem(4 bytes @ 0xE00FF014)ETM fitted. -- CPU_ReadMem(4 bytes @ 0xE00FF018) >0x0D TIF> >0x21 TIF>
  returns 0x2BA01477 (0048ms, 10972ms total)
T0BB0 398:644 JLINK_GetDLLVersion()  returns 48602 (0000ms, 10972ms total)
T0BB0 398:644 JLINK_CORE_GetFound()  returns 0xE0000FF (0000ms, 10972ms total)
T0BB0 398:648 JLINK_GetDebugInfo(0x100) -- Value=0xE00FF003  returns 0x00 (0000ms, 10972ms total)
T0BB0 398:648 JLINK_GetDebugInfo(0x101)  returns 0xFFFFFFFF (0000ms, 10972ms total)
T0BB0 398:648 JLINK_ReadMemEx(0xE0041FF0, 0x0010 Bytes, ..., AccessWidth = 33554436) -- CPU is running -- CPU_ReadMem(16 bytes @ 0xE0041FF0) - Data: 0D 00 00 00 90 00 00 00 05 00 00 00 B1 00 00 00  returns 0x10 (0001ms, 10973ms total)
T0BB0 398:649 JLINK_ReadMemEx(0xE0041FD0, 0x0020 Bytes, ..., AccessWidth = 33554436) -- CPU is running -- CPU_ReadMem(32 bytes @ 0xE0041FD0) - Data: 04 00 00 00 00 00 00 00 00 00 00 00 00 00 00 00 ...  returns 0x20 (0001ms, 10974ms total)
T0BB0 398:650 JLINK_GetDebugInfo(0x102)  returns 0xFFFFFFFF (0000ms, 10974ms total)
T0BB0 398:650 JLINK_GetDebugInfo(0x103)  returns 0xFFFFFFFF (0000ms, 10974ms total)
T0BB0 398:650 JLINK_ReadMemEx(0xE0040FF0, 0x0010 Bytes, ..., AccessWidth = 33554436) -- CPU is running -- CPU_ReadMem(16 bytes @ 0xE0040FF0) - Data: 0D 00 00 00 90 00 00 00 05 00 00 00 B1 00 00 00  returns 0x10 (0001ms, 10975ms total)
T0BB0 398:651 JLINK_GetDebugInfo(0x104)  returns 0xFFFFFFFF (0000ms, 10975ms total)
T0BB0 398:651 JLINK_GetDebugInfo(0x105)  returns 0xFFFFFFFF (0000ms, 10975ms total)
T0BB0 398:651 JLINK_GetDebugInfo(0x106)  returns 0xFFFFFFFF (0000ms, 10975ms total)
T0BB0 398:651 JLINK_GetDebugInfo(0x107)  returns 0xFFFFFFFF (0000ms, 10975ms total)
T0BB0 398:651 JLINK_GetDebugInfo(0x10C)  returns 0xFFFFFFFF (0000ms, 10975ms total)
T0BB0 398:651 JLINK_GetDebugInfo(0x01)  returns 0xFFFFFFFF (0000ms, 10975ms total)
T0BB0 398:651 JLINK_GetDeviceFamily()  returns 14 (0000ms, 10975ms total)
T0BB0 398:651 JLINK_ReadMemU32(0xE000ED00, 0x0001 Items, ...) -- CPU is running -- CPU_ReadMem(4 bytes @ 0xE000ED00) - Data: 41 C2 0F 41  returns 0x01 (0000ms, 10975ms total)
T0BB0 398:651 JLINK_GetDebugInfo(0x10F)  returns 0xFFFFFFFF (0000ms, 10975ms total)
T0BB0 398:651 JLINK_SetResetType(JLINKARM_RESET_TYPE_NORMAL)  returns JLINKARM_RESET_TYPE_NORMAL (0000ms, 10975ms total)
T0BB0 398:651 JLINK_Reset() -- CPU is running -- CPU_WriteMem(4 bytes @ 0xE000EDF0) -- CPU is running -- CPU_WriteMem(4 bytes @ 0xE000EDFC) >0x35 TIF> -- CPU is running -- CPU_WriteMem(4 bytes @ 0xE000ED0C) -- CPU is running -- CPU_ReadMem(4 bytes @ 0xE000EDF0) -- CPU is running -- CPU_ReadMem(4 bytes @ 0xE000EDF0) -- CPU is running -- CPU_WriteMem(4 bytes @ 0xE000EDF0) -- CPU is running -- CPU_WriteMem(4 bytes @ 0xE000EDFC) -- CPU is running -- CPU_ReadMem(4 bytes @ 0xE000EDF0)
 -- CPU_WriteMem(4 bytes @ 0xE0002000) -- CPU_ReadMem(4 bytes @ 0xE000EDFC) -- CPU_ReadMem(4 bytes @ 0xE0001000) (0018ms, 10993ms total)
T0BB0 398:669 JLINK_Halt()  returns 0x00 (0000ms, 10993ms total)
T0BB0 398:669 JLINK_ReadMemU32(0xE000EDF0, 0x0001 Items, ...) -- CPU_ReadMem(4 bytes @ 0xE000EDF0) - Data: 03 00 03 00  returns 0x01 (0000ms, 10993ms total)
T0BB0 398:669 JLINK_WriteU32(0xE000EDF0, 0xA05F0003) -- CPU_WriteMem(4 bytes @ 0xE000EDF0)  returns 0x00 (0001ms, 10994ms total)
T0BB0 398:670 JLINK_WriteU32(0xE000EDFC, 0x01000000) -- CPU_WriteMem(4 bytes @ 0xE000EDFC)  returns 0x00 (0000ms, 10994ms total)
T0BB0 398:686 JLINK_GetHWStatus(...)  returns 0x00 (0000ms, 10994ms total)
T0BB0 398:697 JLINK_GetNumBPUnits(Type = 0xFFFFFF00)  returns 0x06 (0000ms, 10994ms total)
T0BB0 398:697 JLINK_GetNumBPUnits(Type = 0xF0)  returns 0x2000 (0000ms, 10994ms total)
T0BB0 398:697 JLINK_GetNumWPUnits()  returns 0x04 (0000ms, 10994ms total)
T0BB0 398:709 JLINK_GetSpeed()  returns 0xFA0 (0000ms, 10994ms total)
T0BB0 398:716 JLINK_ReadMemU32(0xE000E004, 0x0001 Items, ...) -- CPU_ReadMem(4 bytes @ 0xE000E004) - Data: 02 00 00 00  returns 0x01 (0001ms, 10995ms total)
T0BB0 398:717 JLINK_ReadMemU32(0xE000E004, 0x0001 Items, ...) -- CPU_ReadMem(4 bytes @ 0xE000E004) - Data: 02 00 00 00  returns 0x01 (0000ms, 10995ms total)
T0BB0 398:717 JLINK_WriteMemEx(0xE0001000, 0x001C Bytes, ..., AccessWidth = 33554436) - Data: 01 00 00 00 00 00 00 00 00 00 00 00 00 00 00 00 ... -- CPU_WriteMem(28 bytes @ 0xE0001000)  returns 0x1C (0001ms, 10996ms total)
T0BB0 398:718 JLINK_Halt()  returns 0x00 (0000ms, 10996ms total)
T0BB0 398:718 JLINK_IsHalted()  returns TRUE (0000ms, 10996ms total)
T0BB0 398:721 JLINK_WriteMem(0x20000000, 0x0198 Bytes, ...) - Data: 00 BE 0A E0 0D 78 2D 06 68 40 08 24 40 00 00 D3 ... -- CPU_WriteMem(408 bytes @ 0x20000000)  returns 0x198 (0005ms, 11001ms total)
T0BB0 398:726 JLINK_WriteReg(R0, 0x08000000)  returns 0x00 (0000ms, 11001ms total)
T0BB0 398:726 JLINK_WriteReg(R1, 0x0ABA9500)  returns 0x00 (0000ms, 11001ms total)
T0BB0 398:726 JLINK_WriteReg(R2, 0x00000001)  returns 0x00 (0000ms, 11001ms total)
T0BB0 398:726 JLINK_WriteReg(R3, 0x00000000)  returns 0x00 (0000ms, 11001ms total)
T0BB0 398:726 JLINK_WriteReg(R4, 0x00000000)  returns 0x00 (0001ms, 11002ms total)
T0BB0 398:727 JLINK_WriteReg(R5, 0x00000000)  returns 0x00 (0000ms, 11002ms total)
T0BB0 398:727 JLINK_WriteReg(R6, 0x00000000)  returns 0x00 (0000ms, 11002ms total)
T0BB0 398:727 JLINK_WriteReg(R7, 0x00000000)  returns 0x00 (0000ms, 11002ms total)
T0BB0 398:727 JLINK_WriteReg(R8, 0x00000000)  returns 0x00 (0000ms, 11002ms total)
T0BB0 398:727 JLINK_WriteReg(R9, 0x20000194)  returns 0x00 (0000ms, 11002ms total)
T0BB0 398:727 JLINK_WriteReg(R10, 0x00000000)  returns 0x00 (0000ms, 11002ms total)
T0BB0 398:727 JLINK_WriteReg(R11, 0x00000000)  returns 0x00 (0000ms, 11002ms total)
T0BB0 398:727 JLINK_WriteReg(R12, 0x00000000)  returns 0x00 (0000ms, 11002ms total)
T0BB0 398:727 JLINK_WriteReg(R13 (SP), 0x20001000)  returns 0x00 (0000ms, 11002ms total)
T0BB0 398:727 JLINK_WriteReg(R14, 0x20000001)  returns 0x00 (0000ms, 11002ms total)
T0BB0 398:727 JLINK_WriteReg(R15 (PC), 0x2000005E)  returns 0x00 (0000ms, 11002ms total)
T0BB0 398:727 JLINK_WriteReg(XPSR, 0x01000000)  returns 0x00 (0000ms, 11002ms total)
T0BB0 398:727 JLINK_WriteReg(MSP, 0x20001000)  returns 0x00 (0000ms, 11002ms total)
T0BB0 398:727 JLINK_WriteReg(PSP, 0x20001000)  returns 0x00 (0000ms, 11002ms total)
T0BB0 398:727 JLINK_WriteReg(CFBP, 0x00000000)  returns 0x00 (0000ms, 11002ms total)
T0BB0 398:727 JLINK_SetBPEx(Addr = 0x20000000, Type = 0xFFFFFFF2) -- CPU_ReadMem(2 bytes @ 0x20000000)  returns 0x00000001 (0000ms, 11002ms total)
T0BB0 398:727 JLINK_Go() -- CPU_WriteMem(2 bytes @ 0x20000000) -- CPU_WriteMem(4 bytes @ 0xE0002008) -- CPU_WriteMem(4 bytes @ 0xE000200C) -- CPU_WriteMem(4 bytes @ 0xE0002010) -- CPU_WriteMem(4 bytes @ 0xE0002014) -- CPU_WriteMem(4 bytes @ 0xE0002018) -- CPU_WriteMem(4 bytes @ 0xE000201C) -- CPU_WriteMem(4 bytes @ 0xE0001004) (0006ms, 11008ms total)
T0BB0 398:733 JLINK_IsHalted() -- CPU_ReadMem(2 bytes @ 0x20000000)  returns TRUE (0003ms, 11011ms total)
T0BB0 398:736 JLINK_ReadReg(R15 (PC))  returns 0x20000000 (0000ms, 11008ms total)
T0BB0 398:736 JLINK_ClrBPEx(BPHandle = 0x00000001)  returns 0x00 (0000ms, 11008ms total)
T0BB0 398:736 JLINK_ReadReg(R0)  returns 0x00000000 (0000ms, 11008ms total)
T0BB0 398:737 JLINK_WriteReg(R0, 0x08000000)  returns 0x00 (0000ms, 11008ms total)
T0BB0 398:737 JLINK_WriteReg(R1, 0x00004000)  returns 0x00 (0000ms, 11008ms total)
T0BB0 398:737 JLINK_WriteReg(R2, 0x000000FF)  returns 0x00 (0000ms, 11008ms total)
T0BB0 398:737 JLINK_WriteReg(R3, 0x00000000)  returns 0x00 (0000ms, 11008ms total)
T0BB0 398:737 JLINK_WriteReg(R4, 0x00000000)  returns 0x00 (0000ms, 11008ms total)
T0BB0 398:737 JLINK_WriteReg(R5, 0x00000000)  returns 0x00 (0000ms, 11008ms total)
T0BB0 398:737 JLINK_WriteReg(R6, 0x00000000)  returns 0x00 (0000ms, 11008ms total)
T0BB0 398:737 JLINK_WriteReg(R7, 0x00000000)  returns 0x00 (0000ms, 11008ms total)
T0BB0 398:737 JLINK_WriteReg(R8, 0x00000000)  returns 0x00 (0000ms, 11008ms total)
T0BB0 398:737 JLINK_WriteReg(R9, 0x20000194)  returns 0x00 (0000ms, 11008ms total)
T0BB0 398:737 JLINK_WriteReg(R10, 0x00000000)  returns 0x00 (0000ms, 11008ms total)
T0BB0 398:737 JLINK_WriteReg(R11, 0x00000000)  returns 0x00 (0000ms, 11008ms total)
T0BB0 398:737 JLINK_WriteReg(R12, 0x00000000)  returns 0x00 (0000ms, 11008ms total)
T0BB0 398:737 JLINK_WriteReg(R13 (SP), 0x20001000)  returns 0x00 (0000ms, 11008ms total)
T0BB0 398:737 JLINK_WriteReg(R14, 0x20000001)  returns 0x00 (0000ms, 11008ms total)
T0BB0 398:737 JLINK_WriteReg(R15 (PC), 0x20000020)  returns 0x00 (0000ms, 11008ms total)
T0BB0 398:737 JLINK_WriteReg(XPSR, 0x01000000)  returns 0x00 (0000ms, 11008ms total)
T0BB0 398:737 JLINK_WriteReg(MSP, 0x20001000)  returns 0x00 (0000ms, 11008ms total)
T0BB0 398:737 JLINK_WriteReg(PSP, 0x20001000)  returns 0x00 (0000ms, 11008ms total)
T0BB0 398:737 JLINK_WriteReg(CFBP, 0x00000000)  returns 0x00 (0000ms, 11008ms total)
T0BB0 398:737 JLINK_SetBPEx(Addr = 0x20000000, Type = 0xFFFFFFF2)  returns 0x00000002 (0000ms, 11008ms total)
T0BB0 398:737 JLINK_Go() (0002ms, 11010ms total)
T0BB0 398:739 JLINK_IsHalted() -- CPU_ReadMem(2 bytes @ 0x20000000)  returns TRUE (0003ms, 11013ms total)
T0BB0 398:742 JLINK_ReadReg(R15 (PC))  returns 0x20000000 (0000ms, 11010ms total)
T0BB0 398:742 JLINK_ClrBPEx(BPHandle = 0x00000002)  returns 0x00 (0000ms, 11010ms total)
T0BB0 398:742 JLINK_ReadReg(R0)  returns 0x00000001 (0001ms, 11011ms total)
T0BB0 398:743 JLINK_WriteReg(R0, 0x08000000)  returns 0x00 (0000ms, 11011ms total)
T0BB0 398:743 JLINK_WriteReg(R1, 0x00004000)  returns 0x00 (0000ms, 11011ms total)
T0BB0 398:743 JLINK_WriteReg(R2, 0x000000FF)  returns 0x00 (0000ms, 11011ms total)
T0BB0 398:743 JLINK_WriteReg(R3, 0x00000000)  returns 0x00 (0000ms, 11011ms total)
T0BB0 398:743 JLINK_WriteReg(R4, 0x00000000)  returns 0x00 (0000ms, 11011ms total)
T0BB0 398:743 JLINK_WriteReg(R5, 0x00000000)  returns 0x00 (0000ms, 11011ms total)
T0BB0 398:743 JLINK_WriteReg(R6, 0x00000000)  returns 0x00 (0000ms, 11011ms total)
T0BB0 398:743 JLINK_WriteReg(R7, 0x00000000)  returns 0x00 (0000ms, 11011ms total)
T0BB0 398:743 JLINK_WriteReg(R8, 0x00000000)  returns 0x00 (0000ms, 11011ms total)
T0BB0 398:743 JLINK_WriteReg(R9, 0x20000194)  returns 0x00 (0000ms, 11011ms total)
T0BB0 398:743 JLINK_WriteReg(R10, 0x00000000)  returns 0x00 (0000ms, 11011ms total)
T0BB0 398:743 JLINK_WriteReg(R11, 0x00000000)  returns 0x00 (0000ms, 11011ms total)
T0BB0 398:743 JLINK_WriteReg(R12, 0x00000000)  returns 0x00 (0000ms, 11011ms total)
T0BB0 398:743 JLINK_WriteReg(R13 (SP), 0x20001000)  returns 0x00 (0000ms, 11011ms total)
T0BB0 398:743 JLINK_WriteReg(R14, 0x20000001)  returns 0x00 (0000ms, 11011ms total)
T0BB0 398:743 JLINK_WriteReg(R15 (PC), 0x200000D4)  returns 0x00 (0000ms, 11011ms total)
T0BB0 398:743 JLINK_WriteReg(XPSR, 0x01000000)  returns 0x00 (0000ms, 11011ms total)
T0BB0 398:743 JLINK_WriteReg(MSP, 0x20001000)  returns 0x00 (0000ms, 11011ms total)
T0BB0 398:743 JLINK_WriteReg(PSP, 0x20001000)  returns 0x00 (0000ms, 11011ms total)
T0BB0 398:743 JLINK_WriteReg(CFBP, 0x00000000)  returns 0x00 (0000ms, 11011ms total)
T0BB0 398:743 JLINK_SetBPEx(Addr = 0x20000000, Type = 0xFFFFFFF2)  returns 0x00000003 (0000ms, 11011ms total)
T0BB0 398:743 JLINK_Go() (0001ms, 11012ms total)
T0BB0 398:744 JLINK_IsHalted()  returns FALSE (0001ms, 11013ms total)
T0BB0 398:840 JLINK_IsHalted()  returns FALSE (0000ms, 11012ms total)
T0BB0 398:842 JLINK_IsHalted()  returns FALSE (0000ms, 11012ms total)
T0BB0 398:844 JLINK_IsHalted()  returns FALSE (0000ms, 11012ms total)
T0BB0 398:846 JLINK_IsHalted()  returns FALSE (0000ms, 11012ms total)
T0BB0 398:848 JLINK_IsHalted()  returns FALSE (0000ms, 11012ms total)
T0BB0 398:850 JLINK_IsHalted()  returns FALSE (0000ms, 11012ms total)
T0BB0 398:855 JLINK_IsHalted()  returns FALSE (0000ms, 11012ms total)
T0BB0 398:857 JLINK_IsHalted()  returns FALSE (0000ms, 11012ms total)
T0BB0 398:859 JLINK_IsHalted()  returns FALSE (0000ms, 11012ms total)
T0BB0 398:861 JLINK_IsHalted()  returns FALSE (0000ms, 11012ms total)
T0BB0 398:863 JLINK_IsHalted()  returns FALSE (0000ms, 11012ms total)
T0BB0 398:865 JLINK_IsHalted()  returns FALSE (0000ms, 11012ms total)
T0BB0 398:867 JLINK_IsHalted()  returns FALSE (0000ms, 11012ms total)
T0BB0 398:871 JLINK_IsHalted()  returns FALSE (0000ms, 11012ms total)
T0BB0 398:873 JLINK_IsHalted()  returns FALSE (0000ms, 11012ms total)
T0BB0 398:875 JLINK_IsHalted()  returns FALSE (0000ms, 11012ms total)
T0BB0 398:877 JLINK_IsHalted()  returns FALSE (0000ms, 11012ms total)
T0BB0 398:879 JLINK_IsHalted()  returns FALSE (0000ms, 11012ms total)
T0BB0 398:881 JLINK_IsHalted()  returns FALSE (0000ms, 11012ms total)
T0BB0 398:887 JLINK_IsHalted()  returns FALSE (0000ms, 11012ms total)
T0BB0 398:889 JLINK_IsHalted()  returns FALSE (0000ms, 11012ms total)
T0BB0 398:891 JLINK_IsHalted()  returns FALSE (0000ms, 11012ms total)
T0BB0 398:893 JLINK_IsHalted()  returns FALSE (0000ms, 11012ms total)
T0BB0 398:895 JLINK_IsHalted()  returns FALSE (0000ms, 11012ms total)
T0BB0 398:897 JLINK_IsHalted()  returns FALSE (0000ms, 11012ms total)
T0BB0 398:901 JLINK_IsHalted()  returns FALSE (0000ms, 11012ms total)
T0BB0 398:903 JLINK_IsHalted()  returns FALSE (0000ms, 11012ms total)
T0BB0 398:905 JLINK_IsHalted()  returns FALSE (0000ms, 11012ms total)
T0BB0 398:907 JLINK_IsHalted()  returns FALSE (0000ms, 11012ms total)
T0BB0 398:909 JLINK_IsHalted()  returns FALSE (0000ms, 11012ms total)
T0BB0 398:911 JLINK_IsHalted()  returns FALSE (0000ms, 11012ms total)
T0BB0 398:913 JLINK_IsHalted()  returns FALSE (0000ms, 11012ms total)
T0BB0 398:919 JLINK_IsHalted()  returns FALSE (0000ms, 11012ms total)
T0BB0 398:921 JLINK_IsHalted()  returns FALSE (0000ms, 11012ms total)
T0BB0 398:923 JLINK_IsHalted()  returns FALSE (0000ms, 11012ms total)
T0BB0 398:925 JLINK_IsHalted()  returns FALSE (0000ms, 11012ms total)
T0BB0 398:927 JLINK_IsHalted()  returns FALSE (0000ms, 11012ms total)
T0BB0 398:929 JLINK_IsHalted()  returns FALSE (0000ms, 11012ms total)
T0BB0 398:934 JLINK_IsHalted()  returns FALSE (0000ms, 11012ms total)
T0BB0 398:936 JLINK_IsHalted()  returns FALSE (0000ms, 11012ms total)
T0BB0 398:938 JLINK_IsHalted()  returns FALSE (0000ms, 11012ms total)
T0BB0 398:940 JLINK_IsHalted()  returns FALSE (0000ms, 11012ms total)
T0BB0 398:942 JLINK_IsHalted()  returns FALSE (0000ms, 11012ms total)
T0BB0 398:944 JLINK_IsHalted()  returns FALSE (0000ms, 11012ms total)
T0BB0 398:949 JLINK_IsHalted()  returns FALSE (0000ms, 11012ms total)
T0BB0 398:951 JLINK_IsHalted()  returns FALSE (0000ms, 11012ms total)
T0BB0 398:953 JLINK_IsHalted()  returns FALSE (0000ms, 11012ms total)
T0BB0 398:955 JLINK_IsHalted()  returns FALSE (0000ms, 11012ms total)
T0BB0 398:957 JLINK_IsHalted()  returns FALSE (0000ms, 11012ms total)
T0BB0 398:959 JLINK_IsHalted()  returns FALSE (0000ms, 11012ms total)
T0BB0 398:961 JLINK_IsHalted()  returns FALSE (0000ms, 11012ms total)
T0BB0 398:963 JLINK_IsHalted()  returns FALSE (0000ms, 11012ms total)
T0BB0 398:967 JLINK_IsHalted()  returns FALSE (0000ms, 11012ms total)
T0BB0 398:969 JLINK_IsHalted()  returns FALSE (0000ms, 11012ms total)
T0BB0 398:971 JLINK_IsHalted()  returns FALSE (0000ms, 11012ms total)
T0BB0 398:973 JLINK_IsHalted()  returns FALSE (0000ms, 11012ms total)
T0BB0 398:975 JLINK_IsHalted()  returns FALSE (0000ms, 11012ms total)
T0BB0 398:980 JLINK_IsHalted()  returns FALSE (0000ms, 11012ms total)
T0BB0 398:982 JLINK_IsHalted()  returns FALSE (0000ms, 11012ms total)
T0BB0 398:984 JLINK_IsHalted()  returns FALSE (0000ms, 11012ms total)
T0BB0 398:986 JLINK_IsHalted()  returns FALSE (0000ms, 11012ms total)
T0BB0 398:988 JLINK_IsHalted()  returns FALSE (0000ms, 11012ms total)
T0BB0 398:990 JLINK_IsHalted()  returns FALSE (0000ms, 11012ms total)
T0BB0 398:996 JLINK_IsHalted()  returns FALSE (0000ms, 11012ms total)
T0BB0 399:000 JLINK_IsHalted()  returns FALSE (0000ms, 11012ms total)
T0BB0 399:002 JLINK_IsHalted()  returns FALSE (0000ms, 11012ms total)
T0BB0 399:004 JLINK_IsHalted()  returns FALSE (0000ms, 11012ms total)
T0BB0 399:008 JLINK_IsHalted()  returns FALSE (0000ms, 11012ms total)
T0BB0 399:010 JLINK_IsHalted()  returns FALSE (0000ms, 11012ms total)
T0BB0 399:015 JLINK_IsHalted()  returns FALSE (0000ms, 11012ms total)
T0BB0 399:017 JLINK_IsHalted()  returns FALSE (0000ms, 11012ms total)
T0BB0 399:019 JLINK_IsHalted()  returns FALSE (0000ms, 11012ms total)
T0BB0 399:023 JLINK_IsHalted()  returns FALSE (0000ms, 11012ms total)
T0BB0 399:029 JLINK_IsHalted()  returns FALSE (0000ms, 11012ms total)
T0BB0 399:031 JLINK_IsHalted()  returns FALSE (0000ms, 11012ms total)
T0BB0 399:033 JLINK_IsHalted()  returns FALSE (0000ms, 11012ms total)
T0BB0 399:035 JLINK_IsHalted()  returns FALSE (0000ms, 11012ms total)
T0BB0 399:039 JLINK_IsHalted()  returns FALSE (0000ms, 11012ms total)
T0BB0 399:043 JLINK_IsHalted()  returns FALSE (0000ms, 11012ms total)
T0BB0 399:047 JLINK_IsHalted() -- CPU_ReadMem(2 bytes @ 0x20000000)  returns TRUE (0004ms, 11016ms total)
T0BB0 399:051 JLINK_ReadReg(R15 (PC))  returns 0x20000000 (0000ms, 11012ms total)
T0BB0 399:051 JLINK_ClrBPEx(BPHandle = 0x00000003)  returns 0x00 (0000ms, 11012ms total)
T0BB0 399:051 JLINK_ReadReg(R0)  returns 0x00000000 (0000ms, 11012ms total)
T0BB0 399:052 JLINK_WriteReg(R0, 0x08004000)  returns 0x00 (0000ms, 11012ms total)
T0BB0 399:052 JLINK_WriteReg(R1, 0x00004000)  returns 0x00 (0000ms, 11012ms total)
T0BB0 399:052 JLINK_WriteReg(R2, 0x000000FF)  returns 0x00 (0000ms, 11012ms total)
T0BB0 399:052 JLINK_WriteReg(R3, 0x00000000)  returns 0x00 (0000ms, 11012ms total)
T0BB0 399:052 JLINK_WriteReg(R4, 0x00000000)  returns 0x00 (0000ms, 11012ms total)
T0BB0 399:052 JLINK_WriteReg(R5, 0x00000000)  returns 0x00 (0000ms, 11012ms total)
T0BB0 399:052 JLINK_WriteReg(R6, 0x00000000)  returns 0x00 (0000ms, 11012ms total)
T0BB0 399:052 JLINK_WriteReg(R7, 0x00000000)  returns 0x00 (0000ms, 11012ms total)
T0BB0 399:052 JLINK_WriteReg(R8, 0x00000000)  returns 0x00 (0000ms, 11012ms total)
T0BB0 399:052 JLINK_WriteReg(R9, 0x20000194)  returns 0x00 (0000ms, 11012ms total)
T0BB0 399:052 JLINK_WriteReg(R10, 0x00000000)  returns 0x00 (0000ms, 11012ms total)
T0BB0 399:052 JLINK_WriteReg(R11, 0x00000000)  returns 0x00 (0000ms, 11012ms total)
T0BB0 399:052 JLINK_WriteReg(R12, 0x00000000)  returns 0x00 (0000ms, 11012ms total)
T0BB0 399:052 JLINK_WriteReg(R13 (SP), 0x20001000)  returns 0x00 (0000ms, 11012ms total)
T0BB0 399:052 JLINK_WriteReg(R14, 0x20000001)  returns 0x00 (0000ms, 11012ms total)
T0BB0 399:052 JLINK_WriteReg(R15 (PC), 0x20000020)  returns 0x00 (0000ms, 11012ms total)
T0BB0 399:052 JLINK_WriteReg(XPSR, 0x01000000)  returns 0x00 (0000ms, 11012ms total)
T0BB0 399:052 JLINK_WriteReg(MSP, 0x20001000)  returns 0x00 (0000ms, 11012ms total)
T0BB0 399:052 JLINK_WriteReg(PSP, 0x20001000)  returns 0x00 (0000ms, 11012ms total)
T0BB0 399:052 JLINK_WriteReg(CFBP, 0x00000000)  returns 0x00 (0000ms, 11012ms total)
T0BB0 399:052 JLINK_SetBPEx(Addr = 0x20000000, Type = 0xFFFFFFF2)  returns 0x00000004 (0000ms, 11012ms total)
T0BB0 399:052 JLINK_Go() (0002ms, 11014ms total)
T0BB0 399:054 JLINK_IsHalted() -- CPU_ReadMem(2 bytes @ 0x20000000)  returns TRUE (0004ms, 11018ms total)
T0BB0 399:058 JLINK_ReadReg(R15 (PC))  returns 0x20000000 (0000ms, 11014ms total)
T0BB0 399:058 JLINK_ClrBPEx(BPHandle = 0x00000004)  returns 0x00 (0000ms, 11014ms total)
T0BB0 399:058 JLINK_ReadReg(R0)  returns 0x00000001 (0000ms, 11014ms total)
T0BB0 399:058 JLINK_WriteReg(R0, 0x08004000)  returns 0x00 (0000ms, 11014ms total)
T0BB0 399:058 JLINK_WriteReg(R1, 0x00004000)  returns 0x00 (0000ms, 11014ms total)
T0BB0 399:058 JLINK_WriteReg(R2, 0x000000FF)  returns 0x00 (0000ms, 11014ms total)
T0BB0 399:058 JLINK_WriteReg(R3, 0x00000000)  returns 0x00 (0000ms, 11014ms total)
T0BB0 399:058 JLINK_WriteReg(R4, 0x00000000)  returns 0x00 (0000ms, 11014ms total)
T0BB0 399:058 JLINK_WriteReg(R5, 0x00000000)  returns 0x00 (0000ms, 11014ms total)
T0BB0 399:058 JLINK_WriteReg(R6, 0x00000000)  returns 0x00 (0000ms, 11014ms total)
T0BB0 399:058 JLINK_WriteReg(R7, 0x00000000)  returns 0x00 (0000ms, 11014ms total)
T0BB0 399:058 JLINK_WriteReg(R8, 0x00000000)  returns 0x00 (0000ms, 11014ms total)
T0BB0 399:058 JLINK_WriteReg(R9, 0x20000194)  returns 0x00 (0000ms, 11014ms total)
T0BB0 399:058 JLINK_WriteReg(R10, 0x00000000)  returns 0x00 (0000ms, 11014ms total)
T0BB0 399:058 JLINK_WriteReg(R11, 0x00000000)  returns 0x00 (0000ms, 11014ms total)
T0BB0 399:058 JLINK_WriteReg(R12, 0x00000000)  returns 0x00 (0000ms, 11014ms total)
T0BB0 399:058 JLINK_WriteReg(R13 (SP), 0x20001000)  returns 0x00 (0000ms, 11014ms total)
T0BB0 399:058 JLINK_WriteReg(R14, 0x20000001)  returns 0x00 (0000ms, 11014ms total)
T0BB0 399:058 JLINK_WriteReg(R15 (PC), 0x200000D4)  returns 0x00 (0000ms, 11014ms total)
T0BB0 399:058 JLINK_WriteReg(XPSR, 0x01000000)  returns 0x00 (0000ms, 11014ms total)
T0BB0 399:058 JLINK_WriteReg(MSP, 0x20001000)  returns 0x00 (0000ms, 11014ms total)
T0BB0 399:058 JLINK_WriteReg(PSP, 0x20001000)  returns 0x00 (0000ms, 11014ms total)
T0BB0 399:058 JLINK_WriteReg(CFBP, 0x00000000)  returns 0x00 (0000ms, 11014ms total)
T0BB0 399:058 JLINK_SetBPEx(Addr = 0x20000000, Type = 0xFFFFFFF2)  returns 0x00000005 (0000ms, 11014ms total)
T0BB0 399:058 JLINK_Go() (0001ms, 11015ms total)
T0BB0 399:060 JLINK_IsHalted()  returns FALSE (0000ms, 11016ms total)
T0BB0 399:065 JLINK_IsHalted()  returns FALSE (0000ms, 11016ms total)
T0BB0 399:067 JLINK_IsHalted()  returns FALSE (0000ms, 11016ms total)
T0BB0 399:071 JLINK_IsHalted()  returns FALSE (0000ms, 11016ms total)
T0BB0 399:073 JLINK_IsHalted()  returns FALSE (0000ms, 11016ms total)
T0BB0 399:079 JLINK_IsHalted()  returns FALSE (0000ms, 11016ms total)
T0BB0 399:081 JLINK_IsHalted()  returns FALSE (0000ms, 11016ms total)
T0BB0 399:083 JLINK_IsHalted()  returns FALSE (0000ms, 11016ms total)
T0BB0 399:087 JLINK_IsHalted()  returns FALSE (0000ms, 11016ms total)
T0BB0 399:089 JLINK_IsHalted()  returns FALSE (0000ms, 11016ms total)
T0BB0 399:091 JLINK_IsHalted()  returns FALSE (0000ms, 11016ms total)
T0BB0 399:097 JLINK_IsHalted()  returns FALSE (0000ms, 11016ms total)
T0BB0 399:099 JLINK_IsHalted()  returns FALSE (0000ms, 11016ms total)
T0BB0 399:106 JLINK_IsHalted()  returns FALSE (0000ms, 11016ms total)
T0BB0 399:108 JLINK_IsHalted()  returns FALSE (0000ms, 11016ms total)
T0BB0 399:112 JLINK_IsHalted()  returns FALSE (0000ms, 11016ms total)
T0BB0 399:114 JLINK_IsHalted()  returns FALSE (0000ms, 11016ms total)
T0BB0 399:116 JLINK_IsHalted()  returns FALSE (0000ms, 11016ms total)
T0BB0 399:122 JLINK_IsHalted()  returns FALSE (0000ms, 11016ms total)
T0BB0 399:124 JLINK_IsHalted()  returns FALSE (0000ms, 11016ms total)
T0BB0 399:128 JLINK_IsHalted()  returns FALSE (0000ms, 11016ms total)
T0BB0 399:130 JLINK_IsHalted()  returns FALSE (0000ms, 11016ms total)
T0BB0 399:132 JLINK_IsHalted()  returns FALSE (0000ms, 11016ms total)
T0BB0 399:140 JLINK_IsHalted()  returns FALSE (0000ms, 11016ms total)
T0BB0 399:144 JLINK_IsHalted()  returns FALSE (0000ms, 11016ms total)
T0BB0 399:146 JLINK_IsHalted()  returns FALSE (0000ms, 11016ms total)
T0BB0 399:148 JLINK_IsHalted()  returns FALSE (0000ms, 11016ms total)
T0BB0 399:155 JLINK_IsHalted()  returns FALSE (0000ms, 11016ms total)
T0BB0 399:159 JLINK_IsHalted()  returns FALSE (0000ms, 11016ms total)
T0BB0 399:161 JLINK_IsHalted()  returns FALSE (0000ms, 11016ms total)
T0BB0 399:163 JLINK_IsHalted()  returns FALSE (0000ms, 11016ms total)
T0BB0 399:172 JLINK_IsHalted()  returns FALSE (0000ms, 11016ms total)
T0BB0 399:176 JLINK_IsHalted()  returns FALSE (0000ms, 11016ms total)
T0BB0 399:178 JLINK_IsHalted()  returns FALSE (0000ms, 11016ms total)
T0BB0 399:180 JLINK_IsHalted()  returns FALSE (0000ms, 11016ms total)
T0BB0 399:187 JLINK_IsHalted()  returns FALSE (0000ms, 11016ms total)
T0BB0 399:191 JLINK_IsHalted()  returns FALSE (0000ms, 11016ms total)
T0BB0 399:193 JLINK_IsHalted()  returns FALSE (0000ms, 11016ms total)
T0BB0 399:195 JLINK_IsHalted()  returns FALSE (0000ms, 11016ms total)
T0BB0 399:202 JLINK_IsHalted()  returns FALSE (0000ms, 11016ms total)
T0BB0 399:204 JLINK_IsHalted()  returns FALSE (0000ms, 11016ms total)
T0BB0 399:208 JLINK_IsHalted()  returns FALSE (0000ms, 11016ms total)
T0BB0 399:210 JLINK_IsHalted()  returns FALSE (0000ms, 11016ms total)
T0BB0 399:212 JLINK_IsHalted()  returns FALSE (0000ms, 11016ms total)
T0BB0 399:219 JLINK_IsHalted()  returns FALSE (0000ms, 11016ms total)
T0BB0 399:223 JLINK_IsHalted()  returns FALSE (0000ms, 11016ms total)
T0BB0 399:225 JLINK_IsHalted()  returns FALSE (0000ms, 11016ms total)
T0BB0 399:231 JLINK_IsHalted()  returns FALSE (0000ms, 11016ms total)
T0BB0 399:233 JLINK_IsHalted()  returns FALSE (0000ms, 11016ms total)
T0BB0 399:235 JLINK_IsHalted()  returns FALSE (0000ms, 11016ms total)
T0BB0 399:239 JLINK_IsHalted()  returns FALSE (0000ms, 11016ms total)
T0BB0 399:241 JLINK_IsHalted()  returns FALSE (0000ms, 11016ms total)
T0BB0 399:248 JLINK_IsHalted()  returns FALSE (0000ms, 11016ms total)
T0BB0 399:250 JLINK_IsHalted()  returns FALSE (0000ms, 11016ms total)
T0BB0 399:252 JLINK_IsHalted()  returns FALSE (0000ms, 11016ms total)
T0BB0 399:256 JLINK_IsHalted()  returns FALSE (0000ms, 11016ms total)
T0BB0 399:258 JLINK_IsHalted()  returns FALSE (0000ms, 11016ms total)
T0BB0 399:260 JLINK_IsHalted()  returns FALSE (0000ms, 11016ms total)
T0BB0 399:267 JLINK_IsHalted()  returns FALSE (0000ms, 11016ms total)
T0BB0 399:271 JLINK_IsHalted()  returns FALSE (0000ms, 11016ms total)
T0BB0 399:273 JLINK_IsHalted()  returns FALSE (0000ms, 11016ms total)
T0BB0 399:276 JLINK_IsHalted()  returns FALSE (0000ms, 11016ms total)
T0BB0 399:280 JLINK_IsHalted()  returns FALSE (0000ms, 11016ms total)
T0BB0 399:282 JLINK_IsHalted()  returns FALSE (0000ms, 11016ms total)
T0BB0 399:284 JLINK_IsHalted()  returns FALSE (0000ms, 11016ms total)
T0BB0 399:288 JLINK_IsHalted()  returns FALSE (0000ms, 11016ms total)
T0BB0 399:293 JLINK_IsHalted()  returns FALSE (0000ms, 11016ms total)
T0BB0 399:297 JLINK_IsHalted()  returns FALSE (0000ms, 11016ms total)
T0BB0 399:299 JLINK_IsHalted()  returns FALSE (0000ms, 11016ms total)
T0BB0 399:303 JLINK_IsHalted()  returns FALSE (0000ms, 11016ms total)
T0BB0 399:308 JLINK_IsHalted()  returns FALSE (0000ms, 11016ms total)
T0BB0 399:312 JLINK_IsHalted()  returns FALSE (0000ms, 11016ms total)
T0BB0 399:314 JLINK_IsHalted()  returns FALSE (0000ms, 11016ms total)
T0BB0 399:316 JLINK_IsHalted()  returns FALSE (0000ms, 11016ms total)
T0BB0 399:323 JLINK_IsHalted()  returns FALSE (0000ms, 11016ms total)
T0BB0 399:327 JLINK_IsHalted()  returns FALSE (0000ms, 11016ms total)
T0BB0 399:329 JLINK_IsHalted()  returns FALSE (0000ms, 11016ms total)
T0BB0 399:331 JLINK_IsHalted()  returns FALSE (0000ms, 11016ms total)
T0BB0 399:335 JLINK_IsHalted()  returns FALSE (0000ms, 11016ms total)
T0BB0 399:337 JLINK_IsHalted()  returns FALSE (0000ms, 11016ms total)
T0BB0 399:339 JLINK_IsHalted()  returns FALSE (0000ms, 11016ms total)
T0BB0 399:345 JLINK_IsHalted()  returns FALSE (0000ms, 11016ms total)
T0BB0 399:347 JLINK_IsHalted()  returns FALSE (0000ms, 11016ms total)
T0BB0 399:351 JLINK_IsHalted()  returns FALSE (0000ms, 11016ms total)
T0BB0 399:359 JLINK_IsHalted()  returns FALSE (0000ms, 11016ms total)
T0BB0 399:361 JLINK_IsHalted() -- CPU_ReadMem(2 bytes @ 0x20000000)  returns TRUE (0004ms, 11020ms total)
T0BB0 399:365 JLINK_ReadReg(R15 (PC))  returns 0x20000000 (0000ms, 11016ms total)
T0BB0 399:365 JLINK_ClrBPEx(BPHandle = 0x00000005)  returns 0x00 (0000ms, 11016ms total)
T0BB0 399:365 JLINK_ReadReg(R0)  returns 0x00000000 (0000ms, 11016ms total)
T0BB0 399:366 JLINK_WriteReg(R0, 0x00000001)  returns 0x00 (0000ms, 11016ms total)
T0BB0 399:366 JLINK_WriteReg(R1, 0x00004000)  returns 0x00 (0000ms, 11016ms total)
T0BB0 399:366 JLINK_WriteReg(R2, 0x000000FF)  returns 0x00 (0000ms, 11016ms total)
T0BB0 399:366 JLINK_WriteReg(R3, 0x00000000)  returns 0x00 (0000ms, 11016ms total)
T0BB0 399:366 JLINK_WriteReg(R4, 0x00000000)  returns 0x00 (0000ms, 11016ms total)
T0BB0 399:366 JLINK_WriteReg(R5, 0x00000000)  returns 0x00 (0000ms, 11016ms total)
T0BB0 399:366 JLINK_WriteReg(R6, 0x00000000)  returns 0x00 (0000ms, 11016ms total)
T0BB0 399:366 JLINK_WriteReg(R7, 0x00000000)  returns 0x00 (0000ms, 11016ms total)
T0BB0 399:366 JLINK_WriteReg(R8, 0x00000000)  returns 0x00 (0000ms, 11016ms total)
T0BB0 399:366 JLINK_WriteReg(R9, 0x20000194)  returns 0x00 (0000ms, 11016ms total)
T0BB0 399:366 JLINK_WriteReg(R10, 0x00000000)  returns 0x00 (0000ms, 11016ms total)
T0BB0 399:366 JLINK_WriteReg(R11, 0x00000000)  returns 0x00 (0000ms, 11016ms total)
T0BB0 399:366 JLINK_WriteReg(R12, 0x00000000)  returns 0x00 (0000ms, 11016ms total)
T0BB0 399:366 JLINK_WriteReg(R13 (SP), 0x20001000)  returns 0x00 (0000ms, 11016ms total)
T0BB0 399:366 JLINK_WriteReg(R14, 0x20000001)  returns 0x00 (0000ms, 11016ms total)
T0BB0 399:366 JLINK_WriteReg(R15 (PC), 0x2000008C)  returns 0x00 (0000ms, 11016ms total)
T0BB0 399:366 JLINK_WriteReg(XPSR, 0x01000000)  returns 0x00 (0000ms, 11016ms total)
T0BB0 399:366 JLINK_WriteReg(MSP, 0x20001000)  returns 0x00 (0000ms, 11016ms total)
T0BB0 399:366 JLINK_WriteReg(PSP, 0x20001000)  returns 0x00 (0000ms, 11016ms total)
T0BB0 399:366 JLINK_WriteReg(CFBP, 0x00000000)  returns 0x00 (0000ms, 11016ms total)
T0BB0 399:366 JLINK_SetBPEx(Addr = 0x20000000, Type = 0xFFFFFFF2)  returns 0x00000006 (0000ms, 11016ms total)
T0BB0 399:366 JLINK_Go() (0002ms, 11018ms total)
T0BB0 399:368 JLINK_IsHalted() -- CPU_ReadMem(2 bytes @ 0x20000000)  returns TRUE (0004ms, 11022ms total)
T0BB0 399:372 JLINK_ReadReg(R15 (PC))  returns 0x20000000 (0000ms, 11018ms total)
T0BB0 399:372 JLINK_ClrBPEx(BPHandle = 0x00000006)  returns 0x00 (0000ms, 11018ms total)
T0BB0 399:372 JLINK_ReadReg(R0)  returns 0x00000000 (0000ms, 11018ms total)
T0BB0 399:432 JLINK_WriteMem(0x20000000, 0x0198 Bytes, ...) - Data: 00 BE 0A E0 0D 78 2D 06 68 40 08 24 40 00 00 D3 ... -- CPU_WriteMem(408 bytes @ 0x20000000)  returns 0x198 (0005ms, 11023ms total)
T0BB0 399:437 JLINK_WriteReg(R0, 0x08000000)  returns 0x00 (0000ms, 11023ms total)
T0BB0 399:437 JLINK_WriteReg(R1, 0x0ABA9500)  returns 0x00 (0000ms, 11023ms total)
T0BB0 399:437 JLINK_WriteReg(R2, 0x00000002)  returns 0x00 (0001ms, 11024ms total)
T0BB0 399:438 JLINK_WriteReg(R3, 0x00000000)  returns 0x00 (0000ms, 11024ms total)
T0BB0 399:438 JLINK_WriteReg(R4, 0x00000000)  returns 0x00 (0000ms, 11024ms total)
T0BB0 399:438 JLINK_WriteReg(R5, 0x00000000)  returns 0x00 (0000ms, 11024ms total)
T0BB0 399:438 JLINK_WriteReg(R6, 0x00000000)  returns 0x00 (0000ms, 11024ms total)
T0BB0 399:438 JLINK_WriteReg(R7, 0x00000000)  returns 0x00 (0000ms, 11024ms total)
T0BB0 399:438 JLINK_WriteReg(R8, 0x00000000)  returns 0x00 (0000ms, 11024ms total)
T0BB0 399:438 JLINK_WriteReg(R9, 0x20000194)  returns 0x00 (0000ms, 11024ms total)
T0BB0 399:438 JLINK_WriteReg(R10, 0x00000000)  returns 0x00 (0000ms, 11024ms total)
T0BB0 399:438 JLINK_WriteReg(R11, 0x00000000)  returns 0x00 (0000ms, 11024ms total)
T0BB0 399:438 JLINK_WriteReg(R12, 0x00000000)  returns 0x00 (0000ms, 11024ms total)
T0BB0 399:438 JLINK_WriteReg(R13 (SP), 0x20001000)  returns 0x00 (0000ms, 11024ms total)
T0BB0 399:438 JLINK_WriteReg(R14, 0x20000001)  returns 0x00 (0000ms, 11024ms total)
T0BB0 399:438 JLINK_WriteReg(R15 (PC), 0x2000005E)  returns 0x00 (0000ms, 11024ms total)
T0BB0 399:438 JLINK_WriteReg(XPSR, 0x01000000)  returns 0x00 (0000ms, 11024ms total)
T0BB0 399:438 JLINK_WriteReg(MSP, 0x20001000)  returns 0x00 (0000ms, 11024ms total)
T0BB0 399:438 JLINK_WriteReg(PSP, 0x20001000)  returns 0x00 (0000ms, 11024ms total)
T0BB0 399:438 JLINK_WriteReg(CFBP, 0x00000000)  returns 0x00 (0000ms, 11024ms total)
T0BB0 399:438 JLINK_SetBPEx(Addr = 0x20000000, Type = 0xFFFFFFF2) -- CPU_ReadMem(2 bytes @ 0x20000000)  returns 0x00000007 (0000ms, 11024ms total)
T0BB0 399:438 JLINK_Go() -- CPU_WriteMem(2 bytes @ 0x20000000) (0003ms, 11027ms total)
T0BB0 399:441 JLINK_IsHalted() -- CPU_ReadMem(2 bytes @ 0x20000000)  returns TRUE (0004ms, 11031ms total)
T0BB0 399:445 JLINK_ReadReg(R15 (PC))  returns 0x20000000 (0000ms, 11027ms total)
T0BB0 399:445 JLINK_ClrBPEx(BPHandle = 0x00000007)  returns 0x00 (0000ms, 11027ms total)
T0BB0 399:445 JLINK_ReadReg(R0)  returns 0x00000000 (0000ms, 11027ms total)
T0BB0 399:445 JLINK_WriteMem(0x20000198, 0x0268 Bytes, ...) - Data: 28 9E 00 20 7D 02 00 08 0F 31 00 08 25 2D 00 08 ... -- CPU_WriteMem(616 bytes @ 0x20000198)  returns 0x268 (0008ms, 11035ms total)
T0BB0 399:453 JLINK_WriteMem(0x20000400, 0x0198 Bytes, ...) - Data: 6F 8F 70 47 00 BF 00 BF 14 00 00 20 EF F3 05 80 ... -- CPU_WriteMem(408 bytes @ 0x20000400)  returns 0x198 (0005ms, 11040ms total)
T0BB0 399:458 JLINK_WriteReg(R0, 0x08000000)  returns 0x00 (0000ms, 11040ms total)
T0BB0 399:458 JLINK_WriteReg(R1, 0x00000400)  returns 0x00 (0000ms, 11040ms total)
T0BB0 399:458 JLINK_WriteReg(R2, 0x20000198)  returns 0x00 (0000ms, 11040ms total)
T0BB0 399:458 JLINK_WriteReg(R3, 0x00000000)  returns 0x00 (0000ms, 11040ms total)
T0BB0 399:458 JLINK_WriteReg(R4, 0x00000000)  returns 0x00 (0000ms, 11040ms total)
T0BB0 399:458 JLINK_WriteReg(R5, 0x00000000)  returns 0x00 (0000ms, 11040ms total)
T0BB0 399:458 JLINK_WriteReg(R6, 0x00000000)  returns 0x00 (0001ms, 11041ms total)
T0BB0 399:459 JLINK_WriteReg(R7, 0x00000000)  returns 0x00 (0000ms, 11041ms total)
T0BB0 399:459 JLINK_WriteReg(R8, 0x00000000)  returns 0x00 (0000ms, 11041ms total)
T0BB0 399:459 JLINK_WriteReg(R9, 0x20000194)  returns 0x00 (0000ms, 11041ms total)
T0BB0 399:459 JLINK_WriteReg(R10, 0x00000000)  returns 0x00 (0000ms, 11041ms total)
T0BB0 399:459 JLINK_WriteReg(R11, 0x00000000)  returns 0x00 (0000ms, 11041ms total)
T0BB0 399:459 JLINK_WriteReg(R12, 0x00000000)  returns 0x00 (0000ms, 11041ms total)
T0BB0 399:459 JLINK_WriteReg(R13 (SP), 0x20001000)  returns 0x00 (0000ms, 11041ms total)
T0BB0 399:459 JLINK_WriteReg(R14, 0x20000001)  returns 0x00 (0000ms, 11041ms total)
T0BB0 399:459 JLINK_WriteReg(R15 (PC), 0x20000120)  returns 0x00 (0000ms, 11041ms total)
T0BB0 399:459 JLINK_WriteReg(XPSR, 0x01000000)  returns 0x00 (0000ms, 11041ms total)
T0BB0 399:459 JLINK_WriteReg(MSP, 0x20001000)  returns 0x00 (0000ms, 11041ms total)
T0BB0 399:459 JLINK_WriteReg(PSP, 0x20001000)  returns 0x00 (0000ms, 11041ms total)
T0BB0 399:459 JLINK_WriteReg(CFBP, 0x00000000)  returns 0x00 (0000ms, 11041ms total)
T0BB0 399:459 JLINK_SetBPEx(Addr = 0x20000000, Type = 0xFFFFFFF2)  returns 0x00000008 (0000ms, 11041ms total)
T0BB0 399:459 JLINK_Go() (0002ms, 11043ms total)
T0BB0 399:461 JLINK_IsHalted()  returns FALSE (0000ms, 11043ms total)
T0BB0 399:472 JLINK_IsHalted() -- CPU_ReadMem(2 bytes @ 0x20000000)  returns TRUE (0004ms, 11047ms total)
T0BB0 399:476 JLINK_ReadReg(R15 (PC))  returns 0x20000000 (0000ms, 11043ms total)
T0BB0 399:476 JLINK_ClrBPEx(BPHandle = 0x00000008)  returns 0x00 (0000ms, 11043ms total)
T0BB0 399:476 JLINK_ReadReg(R0)  returns 0x00000000 (0000ms, 11043ms total)
T0BB0 399:478 JLINK_WriteMem(0x20000198, 0x0268 Bytes, ...) - Data: B6 EB 0B 01 64 EB 00 04 2B 0D 43 EA 0C 33 5E 18 ... -- CPU_WriteMem(616 bytes @ 0x20000198)  returns 0x268 (0008ms, 11051ms total)
T0BB0 399:486 JLINK_WriteMem(0x20000400, 0x0198 Bytes, ...) - Data: EC E7 01 20 10 BD 00 00 00 10 01 40 84 00 00 20 ... -- CPU_WriteMem(408 bytes @ 0x20000400)  returns 0x198 (0005ms, 11056ms total)
T0BB0 399:491 JLINK_WriteReg(R0, 0x08000400)  returns 0x00 (0000ms, 11056ms total)
T0BB0 399:491 JLINK_WriteReg(R1, 0x00000400)  returns 0x00 (0001ms, 11057ms total)
T0BB0 399:492 JLINK_WriteReg(R2, 0x20000198)  returns 0x00 (0000ms, 11057ms total)
T0BB0 399:492 JLINK_WriteReg(R3, 0x00000000)  returns 0x00 (0000ms, 11057ms total)
T0BB0 399:492 JLINK_WriteReg(R4, 0x00000000)  returns 0x00 (0000ms, 11057ms total)
T0BB0 399:492 JLINK_WriteReg(R5, 0x00000000)  returns 0x00 (0000ms, 11057ms total)
T0BB0 399:492 JLINK_WriteReg(R6, 0x00000000)  returns 0x00 (0000ms, 11057ms total)
T0BB0 399:492 JLINK_WriteReg(R7, 0x00000000)  returns 0x00 (0000ms, 11057ms total)
T0BB0 399:492 JLINK_WriteReg(R8, 0x00000000)  returns 0x00 (0000ms, 11057ms total)
T0BB0 399:492 JLINK_WriteReg(R9, 0x20000194)  returns 0x00 (0000ms, 11057ms total)
T0BB0 399:492 JLINK_WriteReg(R10, 0x00000000)  returns 0x00 (0000ms, 11057ms total)
T0BB0 399:492 JLINK_WriteReg(R11, 0x00000000)  returns 0x00 (0000ms, 11057ms total)
T0BB0 399:492 JLINK_WriteReg(R12, 0x00000000)  returns 0x00 (0000ms, 11057ms total)
T0BB0 399:492 JLINK_WriteReg(R13 (SP), 0x20001000)  returns 0x00 (0000ms, 11057ms total)
T0BB0 399:492 JLINK_WriteReg(R14, 0x20000001)  returns 0x00 (0000ms, 11057ms total)
T0BB0 399:492 JLINK_WriteReg(R15 (PC), 0x20000120)  returns 0x00 (0000ms, 11057ms total)
T0BB0 399:492 JLINK_WriteReg(XPSR, 0x01000000)  returns 0x00 (0000ms, 11057ms total)
T0BB0 399:492 JLINK_WriteReg(MSP, 0x20001000)  returns 0x00 (0000ms, 11057ms total)
T0BB0 399:492 JLINK_WriteReg(PSP, 0x20001000)  returns 0x00 (0000ms, 11057ms total)
T0BB0 399:492 JLINK_WriteReg(CFBP, 0x00000000)  returns 0x00 (0000ms, 11057ms total)
T0BB0 399:492 JLINK_SetBPEx(Addr = 0x20000000, Type = 0xFFFFFFF2)  returns 0x00000009 (0000ms, 11057ms total)
T0BB0 399:492 JLINK_Go() (0002ms, 11059ms total)
T0BB0 399:494 JLINK_IsHalted()  returns FALSE (0000ms, 11059ms total)
T0BB0 399:502 JLINK_IsHalted() -- CPU_ReadMem(2 bytes @ 0x20000000)  returns TRUE (0004ms, 11063ms total)
T0BB0 399:506 JLINK_ReadReg(R15 (PC))  returns 0x20000000 (0000ms, 11059ms total)
T0BB0 399:506 JLINK_ClrBPEx(BPHandle = 0x00000009)  returns 0x00 (0000ms, 11059ms total)
T0BB0 399:506 JLINK_ReadReg(R0)  returns 0x00000000 (0000ms, 11059ms total)
T0BB0 399:507 JLINK_WriteMem(0x20000198, 0x0268 Bytes, ...) - Data: C2 E9 06 13 C3 ED 00 0A 83 ED 01 0A 83 ED 02 0A ... -- CPU_WriteMem(616 bytes @ 0x20000198)  returns 0x268 (0007ms, 11066ms total)
T0BB0 399:514 JLINK_WriteMem(0x20000400, 0x0198 Bytes, ...) - Data: 60 81 28 89 A0 81 68 89 E0 81 28 7B 20 74 68 7B ... -- CPU_WriteMem(408 bytes @ 0x20000400)  returns 0x198 (0006ms, 11072ms total)
T0BB0 399:520 JLINK_WriteReg(R0, 0x08000800)  returns 0x00 (0000ms, 11072ms total)
T0BB0 399:520 JLINK_WriteReg(R1, 0x00000400)  returns 0x00 (0000ms, 11072ms total)
T0BB0 399:520 JLINK_WriteReg(R2, 0x20000198)  returns 0x00 (0000ms, 11072ms total)
T0BB0 399:520 JLINK_WriteReg(R3, 0x00000000)  returns 0x00 (0000ms, 11072ms total)
T0BB0 399:520 JLINK_WriteReg(R4, 0x00000000)  returns 0x00 (0000ms, 11072ms total)
T0BB0 399:520 JLINK_WriteReg(R5, 0x00000000)  returns 0x00 (0000ms, 11072ms total)
T0BB0 399:520 JLINK_WriteReg(R6, 0x00000000)  returns 0x00 (0000ms, 11072ms total)
T0BB0 399:520 JLINK_WriteReg(R7, 0x00000000)  returns 0x00 (0000ms, 11072ms total)
T0BB0 399:520 JLINK_WriteReg(R8, 0x00000000)  returns 0x00 (0000ms, 11072ms total)
T0BB0 399:520 JLINK_WriteReg(R9, 0x20000194)  returns 0x00 (0000ms, 11072ms total)
T0BB0 399:520 JLINK_WriteReg(R10, 0x00000000)  returns 0x00 (0000ms, 11072ms total)
T0BB0 399:520 JLINK_WriteReg(R11, 0x00000000)  returns 0x00 (0000ms, 11072ms total)
T0BB0 399:520 JLINK_WriteReg(R12, 0x00000000)  returns 0x00 (0000ms, 11072ms total)
T0BB0 399:520 JLINK_WriteReg(R13 (SP), 0x20001000)  returns 0x00 (0000ms, 11072ms total)
T0BB0 399:520 JLINK_WriteReg(R14, 0x20000001)  returns 0x00 (0000ms, 11072ms total)
T0BB0 399:520 JLINK_WriteReg(R15 (PC), 0x20000120)  returns 0x00 (0000ms, 11072ms total)
T0BB0 399:520 JLINK_WriteReg(XPSR, 0x01000000)  returns 0x00 (0000ms, 11072ms total)
T0BB0 399:520 JLINK_WriteReg(MSP, 0x20001000)  returns 0x00 (0000ms, 11072ms total)
T0BB0 399:520 JLINK_WriteReg(PSP, 0x20001000)  returns 0x00 (0000ms, 11072ms total)
T0BB0 399:520 JLINK_WriteReg(CFBP, 0x00000000)  returns 0x00 (0000ms, 11072ms total)
T0BB0 399:520 JLINK_SetBPEx(Addr = 0x20000000, Type = 0xFFFFFFF2)  returns 0x0000000A (0000ms, 11072ms total)
T0BB0 399:520 JLINK_Go() (0002ms, 11074ms total)
T0BB0 399:523 JLINK_IsHalted()  returns FALSE (0000ms, 11075ms total)
T0BB0 399:529 JLINK_IsHalted() -- CPU_ReadMem(2 bytes @ 0x20000000)  returns TRUE (0004ms, 11079ms total)
T0BB0 399:533 JLINK_ReadReg(R15 (PC))  returns 0x20000000 (0000ms, 11075ms total)
T0BB0 399:533 JLINK_ClrBPEx(BPHandle = 0x0000000A)  returns 0x00 (0000ms, 11075ms total)
T0BB0 399:533 JLINK_ReadReg(R0)  returns 0x00000000 (0000ms, 11075ms total)
T0BB0 399:534 JLINK_WriteMem(0x20000198, 0x0268 Bytes, ...) - Data: 94 8B 00 20 00 48 70 47 94 8B 00 20 00 68 0B 4A ... -- CPU_WriteMem(616 bytes @ 0x20000198)  returns 0x268 (0008ms, 11083ms total)
T0BB0 399:542 JLINK_WriteMem(0x20000400, 0x0198 Bytes, ...) - Data: 04 68 02 EB 01 12 A4 58 1C 70 04 68 A4 58 24 0A ... -- CPU_WriteMem(408 bytes @ 0x20000400)  returns 0x198 (0005ms, 11088ms total)
T0BB0 399:547 JLINK_WriteReg(R0, 0x08000C00)  returns 0x00 (0000ms, 11088ms total)
T0BB0 399:547 JLINK_WriteReg(R1, 0x00000400)  returns 0x00 (0000ms, 11088ms total)
T0BB0 399:547 JLINK_WriteReg(R2, 0x20000198)  returns 0x00 (0000ms, 11088ms total)
T0BB0 399:547 JLINK_WriteReg(R3, 0x00000000)  returns 0x00 (0000ms, 11088ms total)
T0BB0 399:547 JLINK_WriteReg(R4, 0x00000000)  returns 0x00 (0000ms, 11088ms total)
T0BB0 399:547 JLINK_WriteReg(R5, 0x00000000)  returns 0x00 (0000ms, 11088ms total)
T0BB0 399:547 JLINK_WriteReg(R6, 0x00000000)  returns 0x00 (0000ms, 11088ms total)
T0BB0 399:547 JLINK_WriteReg(R7, 0x00000000)  returns 0x00 (0000ms, 11088ms total)
T0BB0 399:547 JLINK_WriteReg(R8, 0x00000000)  returns 0x00 (0000ms, 11088ms total)
T0BB0 399:547 JLINK_WriteReg(R9, 0x20000194)  returns 0x00 (0000ms, 11088ms total)
T0BB0 399:547 JLINK_WriteReg(R10, 0x00000000)  returns 0x00 (0000ms, 11088ms total)
T0BB0 399:547 JLINK_WriteReg(R11, 0x00000000)  returns 0x00 (0000ms, 11088ms total)
T0BB0 399:547 JLINK_WriteReg(R12, 0x00000000)  returns 0x00 (0000ms, 11088ms total)
T0BB0 399:547 JLINK_WriteReg(R13 (SP), 0x20001000)  returns 0x00 (0000ms, 11088ms total)
T0BB0 399:547 JLINK_WriteReg(R14, 0x20000001)  returns 0x00 (0000ms, 11088ms total)
T0BB0 399:547 JLINK_WriteReg(R15 (PC), 0x20000120)  returns 0x00 (0000ms, 11088ms total)
T0BB0 399:547 JLINK_WriteReg(XPSR, 0x01000000)  returns 0x00 (0000ms, 11088ms total)
T0BB0 399:547 JLINK_WriteReg(MSP, 0x20001000)  returns 0x00 (0000ms, 11088ms total)
T0BB0 399:547 JLINK_WriteReg(PSP, 0x20001000)  returns 0x00 (0000ms, 11088ms total)
T0BB0 399:547 JLINK_WriteReg(CFBP, 0x00000000)  returns 0x00 (0001ms, 11089ms total)
T0BB0 399:548 JLINK_SetBPEx(Addr = 0x20000000, Type = 0xFFFFFFF2)  returns 0x0000000B (0000ms, 11089ms total)
T0BB0 399:548 JLINK_Go() (0001ms, 11090ms total)
T0BB0 399:549 JLINK_IsHalted()  returns FALSE (0001ms, 11091ms total)
T0BB0 399:559 JLINK_IsHalted() -- CPU_ReadMem(2 bytes @ 0x20000000)  returns TRUE (0004ms, 11094ms total)
T0BB0 399:563 JLINK_ReadReg(R15 (PC))  returns 0x20000000 (0000ms, 11090ms total)
T0BB0 399:563 JLINK_ClrBPEx(BPHandle = 0x0000000B)  returns 0x00 (0000ms, 11090ms total)
T0BB0 399:563 JLINK_ReadReg(R0)  returns 0x00000000 (0000ms, 11090ms total)
T0BB0 399:563 JLINK_WriteMem(0x20000198, 0x0268 Bytes, ...) - Data: 00 F0 3F F9 B0 03 08 D5 5F EA C9 60 05 D5 29 68 ... -- CPU_WriteMem(616 bytes @ 0x20000198)  returns 0x268 (0008ms, 11098ms total)
T0BB0 399:571 JLINK_WriteMem(0x20000400, 0x0198 Bytes, ...) - Data: A0 69 01 F0 48 FF 03 48 E1 6D 08 38 01 60 21 6E ... -- CPU_WriteMem(408 bytes @ 0x20000400)  returns 0x198 (0006ms, 11104ms total)
T0BB0 399:577 JLINK_WriteReg(R0, 0x08001000)  returns 0x00 (0000ms, 11104ms total)
T0BB0 399:577 JLINK_WriteReg(R1, 0x00000400)  returns 0x00 (0000ms, 11104ms total)
T0BB0 399:577 JLINK_WriteReg(R2, 0x20000198)  returns 0x00 (0000ms, 11104ms total)
T0BB0 399:577 JLINK_WriteReg(R3, 0x00000000)  returns 0x00 (0000ms, 11104ms total)
T0BB0 399:577 JLINK_WriteReg(R4, 0x00000000)  returns 0x00 (0000ms, 11104ms total)
T0BB0 399:577 JLINK_WriteReg(R5, 0x00000000)  returns 0x00 (0000ms, 11104ms total)
T0BB0 399:577 JLINK_WriteReg(R6, 0x00000000)  returns 0x00 (0000ms, 11104ms total)
T0BB0 399:577 JLINK_WriteReg(R7, 0x00000000)  returns 0x00 (0000ms, 11104ms total)
T0BB0 399:577 JLINK_WriteReg(R8, 0x00000000)  returns 0x00 (0000ms, 11104ms total)
T0BB0 399:577 JLINK_WriteReg(R9, 0x20000194)  returns 0x00 (0000ms, 11104ms total)
T0BB0 399:577 JLINK_WriteReg(R10, 0x00000000)  returns 0x00 (0000ms, 11104ms total)
T0BB0 399:577 JLINK_WriteReg(R11, 0x00000000)  returns 0x00 (0000ms, 11104ms total)
T0BB0 399:577 JLINK_WriteReg(R12, 0x00000000)  returns 0x00 (0000ms, 11104ms total)
T0BB0 399:577 JLINK_WriteReg(R13 (SP), 0x20001000)  returns 0x00 (0000ms, 11104ms total)
T0BB0 399:577 JLINK_WriteReg(R14, 0x20000001)  returns 0x00 (0000ms, 11104ms total)
T0BB0 399:577 JLINK_WriteReg(R15 (PC), 0x20000120)  returns 0x00 (0000ms, 11104ms total)
T0BB0 399:577 JLINK_WriteReg(XPSR, 0x01000000)  returns 0x00 (0000ms, 11104ms total)
T0BB0 399:577 JLINK_WriteReg(MSP, 0x20001000)  returns 0x00 (0000ms, 11104ms total)
T0BB0 399:577 JLINK_WriteReg(PSP, 0x20001000)  returns 0x00 (0000ms, 11104ms total)
T0BB0 399:577 JLINK_WriteReg(CFBP, 0x00000000)  returns 0x00 (0000ms, 11104ms total)
T0BB0 399:577 JLINK_SetBPEx(Addr = 0x20000000, Type = 0xFFFFFFF2)  returns 0x0000000C (0000ms, 11104ms total)
T0BB0 399:577 JLINK_Go() (0002ms, 11106ms total)
T0BB0 399:579 JLINK_IsHalted()  returns FALSE (0000ms, 11106ms total)
T0BB0 399:586 JLINK_IsHalted() -- CPU_ReadMem(2 bytes @ 0x20000000)  returns TRUE (0003ms, 11109ms total)
T0BB0 399:590 JLINK_ReadReg(R15 (PC))  returns 0x20000000 (0000ms, 11106ms total)
T0BB0 399:590 JLINK_ClrBPEx(BPHandle = 0x0000000C)  returns 0x00 (0000ms, 11106ms total)
T0BB0 399:590 JLINK_ReadReg(R0)  returns 0x00000000 (0000ms, 11106ms total)
T0BB0 399:590 JLINK_WriteMem(0x20000198, 0x0268 Bytes, ...) - Data: 49 03 47 D5 00 68 00 03 1D D4 61 6C 1C E0 21 F0 ... -- CPU_WriteMem(616 bytes @ 0x20000198)  returns 0x268 (0008ms, 11114ms total)
T0BB0 399:598 JLINK_WriteMem(0x20000400, 0x0198 Bytes, ...) - Data: 4E 68 01 2E 05 D0 02 2E 03 D0 11 2E 01 D0 12 2E ... -- CPU_WriteMem(408 bytes @ 0x20000400)  returns 0x198 (0005ms, 11119ms total)
T0BB0 399:603 JLINK_WriteReg(R0, 0x08001400)  returns 0x00 (0000ms, 11119ms total)
T0BB0 399:603 JLINK_WriteReg(R1, 0x00000400)  returns 0x00 (0000ms, 11119ms total)
T0BB0 399:603 JLINK_WriteReg(R2, 0x20000198)  returns 0x00 (0000ms, 11119ms total)
T0BB0 399:603 JLINK_WriteReg(R3, 0x00000000)  returns 0x00 (0000ms, 11119ms total)
T0BB0 399:603 JLINK_WriteReg(R4, 0x00000000)  returns 0x00 (0000ms, 11119ms total)
T0BB0 399:603 JLINK_WriteReg(R5, 0x00000000)  returns 0x00 (0000ms, 11119ms total)
T0BB0 399:603 JLINK_WriteReg(R6, 0x00000000)  returns 0x00 (0000ms, 11119ms total)
T0BB0 399:603 JLINK_WriteReg(R7, 0x00000000)  returns 0x00 (0000ms, 11119ms total)
T0BB0 399:603 JLINK_WriteReg(R8, 0x00000000)  returns 0x00 (0000ms, 11119ms total)
